Command: /fetools/work_area/frontend/Batch_11/shreeshakumar/DV_workspace/DV_projects/AXI_4_lite/src/simulation/./simv +UVM_TESTNAME=rand_arprot_test +ntb_random_seed=102 -cm line+cond+fsm+tgl+branch -cm_dir coverage/rand_arprot_test_102.vdb -l logs/rand_arprot_test_102.log
Chronologic VCS simulator copyright 1991-2020
Contains Synopsys proprietary information.
Compiler version Q-2020.03-SP2-8_Full64; Runtime version Q-2020.03-SP2-8_Full64;  Sep 22 09:25 2026
----------------------------------------------------------------
UVM-1.1d.Synopsys
(C) 2007-2013 Mentor Graphics Corporation
(C) 2007-2013 Cadence Design Systems, Inc.
(C) 2006-2013 Synopsys, Inc.
(C) 2011-2013 Cypress Semiconductor Corp.
----------------------------------------------------------------

  ***********       IMPORTANT RELEASE NOTES         ************

  You are using a version of the UVM library that has been compiled
  with `UVM_NO_DEPRECATED undefined.
  See http://www.eda.org/svdb/view.php?id=3313 for more details.

  You are using a version of the UVM library that has been compiled
  with `UVM_OBJECT_MUST_HAVE_CONSTRUCTOR undefined.
  See http://www.eda.org/svdb/view.php?id=3770 for more details.

      (Specify +UVM_NO_RELNOTES to turn off this notice)

UVM_INFO @ 0: reporter [RNTST] Running test rand_arprot_test...
________________________________________________________________________________________________________________________________________________________________
1
UVM_ERROR src/verification/axi_scrbd.sv(33) @ 373: uvm_test_top.env_h.sb_h [SCB_FAIL] RESP Mismatch. Act: 0, Exp: 0 | act 3, exp 2
UVM_ERROR src/verification/axi_scrbd.sv(35) @ 373: uvm_test_top.env_h.sb_h [SCB_FAIL] During Read Mismatch at Addr d9a7070f. Act Data: 0, Exp Data: 0
0
1
1
UVM_ERROR src/verification/axi_scrbd.sv(33) @ 833: uvm_test_top.env_h.sb_h [SCB_FAIL] RESP Mismatch. Act: 0, Exp: 0 | act 3, exp 2
UVM_ERROR src/verification/axi_scrbd.sv(35) @ 833: uvm_test_top.env_h.sb_h [SCB_FAIL] During Read Mismatch at Addr 86b818f3. Act Data: 0, Exp Data: 0
0
UVM_ERROR src/verification/axi_scrbd.sv(33) @ 921: uvm_test_top.env_h.sb_h [SCB_FAIL] RESP Mismatch. Act: 0, Exp: 0 | act 3, exp 2
UVM_ERROR src/verification/axi_scrbd.sv(35) @ 921: uvm_test_top.env_h.sb_h [SCB_FAIL] During Read Mismatch at Addr 74072aa6. Act Data: 0, Exp Data: 0
0
1
UVM_ERROR src/verification/axi_scrbd.sv(33) @ 1211: uvm_test_top.env_h.sb_h [SCB_FAIL] RESP Mismatch. Act: 0, Exp: 0 | act 3, exp 2
UVM_ERROR src/verification/axi_scrbd.sv(35) @ 1211: uvm_test_top.env_h.sb_h [SCB_FAIL] During Read Mismatch at Addr fc0392da. Act Data: 0, Exp Data: 0
0
UVM_ERROR src/verification/axi_scrbd.sv(33) @ 1415: uvm_test_top.env_h.sb_h [SCB_FAIL] RESP Mismatch. Act: 0, Exp: 0 | act 3, exp 2
UVM_ERROR src/verification/axi_scrbd.sv(35) @ 1415: uvm_test_top.env_h.sb_h [SCB_FAIL] During Read Mismatch at Addr 8298a9b3. Act Data: 0, Exp Data: 0
0
1
UVM_ERROR src/verification/axi_scrbd.sv(33) @ 1973: uvm_test_top.env_h.sb_h [SCB_FAIL] RESP Mismatch. Act: 0, Exp: 0 | act 3, exp 2
UVM_ERROR src/verification/axi_scrbd.sv(35) @ 1973: uvm_test_top.env_h.sb_h [SCB_FAIL] During Read Mismatch at Addr f01b1ea7. Act Data: 0, Exp Data: 0
0
1
UVM_ERROR src/verification/axi_scrbd.sv(33) @ 2371: uvm_test_top.env_h.sb_h [SCB_FAIL] RESP Mismatch. Act: 0, Exp: 0 | act 3, exp 2
UVM_ERROR src/verification/axi_scrbd.sv(35) @ 2371: uvm_test_top.env_h.sb_h [SCB_FAIL] During Read Mismatch at Addr d40dbc33. Act Data: 0, Exp Data: 0
0
UVM_ERROR src/verification/axi_scrbd.sv(33) @ 2861: uvm_test_top.env_h.sb_h [SCB_FAIL] RESP Mismatch. Act: 0, Exp: 0 | act 3, exp 2
UVM_ERROR src/verification/axi_scrbd.sv(35) @ 2861: uvm_test_top.env_h.sb_h [SCB_FAIL] During Read Mismatch at Addr 3a964497. Act Data: 0, Exp Data: 0
0
UVM_ERROR src/verification/axi_scrbd.sv(33) @ 3085: uvm_test_top.env_h.sb_h [SCB_FAIL] RESP Mismatch. Act: 0, Exp: 0 | act 3, exp 2
UVM_ERROR src/verification/axi_scrbd.sv(35) @ 3085: uvm_test_top.env_h.sb_h [SCB_FAIL] During Read Mismatch at Addr 4d23b716. Act Data: 0, Exp Data: 0
0
1
UVM_ERROR src/verification/axi_scrbd.sv(33) @ 3419: uvm_test_top.env_h.sb_h [SCB_FAIL] RESP Mismatch. Act: 0, Exp: 0 | act 3, exp 2
UVM_ERROR src/verification/axi_scrbd.sv(35) @ 3419: uvm_test_top.env_h.sb_h [SCB_FAIL] During Read Mismatch at Addr e2c95ced. Act Data: 0, Exp Data: 0
0
UVM_ERROR src/verification/axi_scrbd.sv(33) @ 3615: uvm_test_top.env_h.sb_h [SCB_FAIL] RESP Mismatch. Act: 0, Exp: 0 | act 3, exp 2
UVM_ERROR src/verification/axi_scrbd.sv(35) @ 3615: uvm_test_top.env_h.sb_h [SCB_FAIL] During Read Mismatch at Addr 2e7b72d2. Act Data: 0, Exp Data: 0
0
1
UVM_ERROR src/verification/axi_scrbd.sv(33) @ 3913: uvm_test_top.env_h.sb_h [SCB_FAIL] RESP Mismatch. Act: 0, Exp: 0 | act 3, exp 2
UVM_ERROR src/verification/axi_scrbd.sv(35) @ 3913: uvm_test_top.env_h.sb_h [SCB_FAIL] During Read Mismatch at Addr ce8ea3aa. Act Data: 0, Exp Data: 0
0
UVM_ERROR src/verification/axi_scrbd.sv(33) @ 4141: uvm_test_top.env_h.sb_h [SCB_FAIL] RESP Mismatch. Act: 0, Exp: 0 | act 3, exp 2
UVM_ERROR src/verification/axi_scrbd.sv(35) @ 4141: uvm_test_top.env_h.sb_h [SCB_FAIL] During Read Mismatch at Addr 8f8a3ace. Act Data: 0, Exp Data: 0
0
UVM_ERROR src/verification/axi_scrbd.sv(33) @ 4261: uvm_test_top.env_h.sb_h [SCB_FAIL] RESP Mismatch. Act: 0, Exp: 0 | act 3, exp 2
UVM_ERROR src/verification/axi_scrbd.sv(35) @ 4261: uvm_test_top.env_h.sb_h [SCB_FAIL] During Read Mismatch at Addr 40ed8537. Act Data: 0, Exp Data: 0
0
1
UVM_ERROR src/verification/axi_scrbd.sv(33) @ 4715: uvm_test_top.env_h.sb_h [SCB_FAIL] RESP Mismatch. Act: 0, Exp: 0 | act 3, exp 2
UVM_ERROR src/verification/axi_scrbd.sv(35) @ 4715: uvm_test_top.env_h.sb_h [SCB_FAIL] During Read Mismatch at Addr 789b21c7. Act Data: 0, Exp Data: 0
0
UVM_ERROR src/verification/axi_scrbd.sv(33) @ 4785: uvm_test_top.env_h.sb_h [SCB_FAIL] RESP Mismatch. Act: 0, Exp: 0 | act 3, exp 2
UVM_ERROR src/verification/axi_scrbd.sv(35) @ 4785: uvm_test_top.env_h.sb_h [SCB_FAIL] During Read Mismatch at Addr 80172c61. Act Data: 0, Exp Data: 0
0
1
UVM_INFO /fetools/synopsys/installed_tools/vcs/vcs/Q-2020.03-SP2-8/etc/uvm/base/uvm_objection.svh(1274) @ 5001: reporter [TEST_DONE] 'run' phase is ready to proceed to the 'extract' phase
UVM_INFO src/verification/axi_subr.sv(72) @ 5001: uvm_test_top.env_h.sub_h [COV] ALU Input Coverage: 22.92%

--- UVM Report Summary ---

** Report counts by severity
UVM_INFO :    3
UVM_WARNING :    0
UVM_ERROR :   32
UVM_FATAL :    0
** Report counts by id
[COV]     1
[RNTST]     1
[SCB_FAIL]    32
[TEST_DONE]     1
$finish called from file "/fetools/synopsys/installed_tools/vcs/vcs/Q-2020.03-SP2-8/etc/uvm/base/uvm_root.svh", line 437.
$finish at simulation time                 5001

---------------------------------------------------------------------------
VCS Coverage Metrics: during simulation line, cond, FSM, branch, tgl was monitored
---------------------------------------------------------------------------
           V C S   S i m u l a t i o n   R e p o r t 
Time: 5001
CPU Time:      0.850 seconds;       Data structure size:   0.6Mb
Tue Sep 22 09:25:43 2026
